
T68B0 000:639 SEGGER J-Link V4.90 Log File (0002ms, 0271ms total)
T68B0 000:639 DLL Compiled: Jul 28 2014 10:35:20 (0002ms, 0271ms total)
T68B0 000:639 Logging started @ 2019-11-22 17:02 (0002ms, 0271ms total)
T68B0 000:641 JLINK_SetWarnOutHandler(...) (0000ms, 0271ms total)
T68B0 000:641 JLINK_OpenEx(...)
Firmware: J-Link ARM-OB STM32 compiled Aug 22 2012 19:52:04
Hardware: V7.00
S/N: 20090928
Feature(s): RDI,FlashDL,FlashBP,JFlash,GDBFull  returns O.K. (0271ms, 0542ms total)
T68B0 000:912 JLINK_SetErrorOutHandler(...) (0000ms, 0542ms total)
T68B0 000:912 JLINK_ExecCommand("ProjectFile = "E:\LPC546程序\小车摄像头\JLinkSettings.ini"", ...)Device "CORTEX-M4" selected (0 KB flash, 0 KB RAM).  returns 0x00 (0006ms, 0548ms total)
T68B0 000:922 JLINK_ExecCommand("Device = LPC54606J512BD100", ...)Device "CORTEX-M4" selected (0 KB flash, 0 KB RAM).  returns 0x00 (0004ms, 0553ms total)
T68B0 000:927 JLINK_ExecCommand("DisableConnectionTimeout", ...)  returns 0x01 (0000ms, 0553ms total)
T68B0 000:927 JLINK_GetHardwareVersion()  returns 0x11170 (0000ms, 0553ms total)
T68B0 000:927 JLINK_GetDLLVersion()  returns 49000 (0000ms, 0553ms total)
T68B0 000:927 JLINK_GetFirmwareString(...) (0000ms, 0553ms total)
T68B0 000:973 JLINK_GetDLLVersion()  returns 49000 (0000ms, 0553ms total)
T68B0 000:973 JLINK_GetCompileDateTime() (0000ms, 0553ms total)
T68B0 000:988 JLINK_GetFirmwareString(...) (0000ms, 0553ms total)
T68B0 000:995 JLINK_GetHardwareVersion()  returns 0x11170 (0000ms, 0554ms total)
T68B0 001:015 JLINK_TIF_Select(JLINKARM_TIF_SWD)  returns 0x00 (0001ms, 0555ms total)
T68B0 001:016 JLINK_SetSpeed(5000) (0000ms, 0555ms total)
T68B0 001:016 JLINK_GetId() >0x108 TIF>Found SWD-DP with ID 0x2BA01477 >0x0D TIF> >0x21 TIF> >0x0D TIF> >0x28 TIF> >0x0D TIF> >0x28 TIF> >0x0D TIF> >0x21 TIF> >0x0D TIF> >0x28 TIF> >0x0D TIF> >0x21 TIF> >0x0D TIF> >0x21 TIF> >0x0D TIF> >0x21 TIF> >0x0D TIF> >0x21 TIF> >0x0D TIF> >0x28 TIF> >0x0D TIF> >0x28 TIF> >0x0D TIF> >0x21 TIF> >0x0D TIF> >0x28 TIF> >0x0D TIF> >0x28 TIF> >0x0D TIF> >0x28 TIF> >0x0D TIF> >0x21 TIF> >0x0D TIF> >0x21 TIF> >0x0D TIF> >0x28 TIF> >0x0D TIF> >0x21 TIF> >0x0D TIF>
 >0x21 TIF>Found Cortex-M4 r0p1, Little endian. -- CPU_WriteMem(4 bytes @ 0xE0002000) -- CPU_ReadMem(4 bytes @ 0xE000EDF0) -- CPU_ReadMem(4 bytes @ 0xE0002000)FPUnit: 6 code (BP) slots and 2 literal slots -- CPU_ReadMem(4 bytes @ 0xE000EDFC) -- CPU_ReadMem(4 bytes @ 0xE0001000) -- CPU_WriteMem(4 bytes @ 0xE0001000) -- CPU_ReadMem(4 bytes @ 0xE00FF010)TPIU fitted. -- CPU_ReadMem(4 bytes @ 0xE00FF014)ETM fitted. -- CPU_ReadMem(4 bytes @ 0xE00FF018) >0x0D TIF> >0x21 TIF>  returns 0x2BA01477
 (0037ms, 0592ms total)
T68B0 001:053 JLINK_GetDLLVersion()  returns 49000 (0000ms, 0592ms total)
T68B0 001:053 JLINK_CORE_GetFound()  returns 0xE0000FF (0000ms, 0592ms total)
T68B0 001:056 JLINK_GetDebugInfo(0x100) -- Value=0xE00FF003  returns 0x00 (0000ms, 0592ms total)
T68B0 001:056 JLINK_GetDebugInfo(0x101)  returns 0xFFFFFFFF (0000ms, 0592ms total)
T68B0 001:056 JLINK_ReadMem (0xE0041FF0, 0x0010 Bytes, ...) -- CPU is running -- CPU_ReadMem(16 bytes @ 0xE0041FF0) - Data: 0D 00 00 00 90 00 00 00 05 00 00 00 B1 00 00 00  returns 0x00 (0001ms, 0593ms total)
T68B0 001:057 JLINK_GetDebugInfo(0x102)  returns 0xFFFFFFFF (0000ms, 0593ms total)
T68B0 001:057 JLINK_GetDebugInfo(0x103)  returns 0xFFFFFFFF (0000ms, 0593ms total)
T68B0 001:057 JLINK_ReadMem (0xE0040FF0, 0x0010 Bytes, ...) -- CPU is running -- CPU_ReadMem(16 bytes @ 0xE0040FF0) - Data: 0D 00 00 00 90 00 00 00 05 00 00 00 B1 00 00 00  returns 0x00 (0001ms, 0594ms total)
T68B0 001:058 JLINK_GetDebugInfo(0x104)  returns 0xFFFFFFFF (0000ms, 0594ms total)
T68B0 001:058 JLINK_GetDebugInfo(0x105)  returns 0xFFFFFFFF (0000ms, 0594ms total)
T68B0 001:058 JLINK_GetDebugInfo(0x106)  returns 0xFFFFFFFF (0000ms, 0594ms total)
T68B0 001:058 JLINK_GetDebugInfo(0x107)  returns 0xFFFFFFFF (0000ms, 0594ms total)
T68B0 001:058 JLINK_GetDebugInfo(0x10C)  returns 0xFFFFFFFF (0000ms, 0594ms total)
T68B0 001:058 JLINK_ReadMemU32(0xE000EF40, 0x0001 Items, ...) -- CPU is running -- CPU_ReadMem(4 bytes @ 0xE000EF40) - Data: 21 00 11 10  returns 0x01 (0001ms, 0595ms total)
T68B0 001:059 JLINK_ReadMemU32(0xE000EF44, 0x0001 Items, ...) -- CPU is running -- CPU_ReadMem(4 bytes @ 0xE000EF44) - Data: 11 00 00 11  returns 0x01 (0001ms, 0596ms total)
T68B0 001:060 JLINK_ReadMemU32(0xE000ED00, 0x0001 Items, ...) -- CPU is running -- CPU_ReadMem(4 bytes @ 0xE000ED00) - Data: 41 C2 0F 41  returns 0x01 (0000ms, 0596ms total)
T68B0 001:060 JLINK_SetResetType(JLINKARM_RESET_TYPE_NORMAL)  returns JLINKARM_RESET_TYPE_NORMAL (0000ms, 0596ms total)
T68B0 001:060 JLINK_Reset() -- CPU is running -- CPU_WriteMem(4 bytes @ 0xE000EDF0) -- CPU is running -- CPU_WriteMem(4 bytes @ 0xE000EDFC) >0x35 TIF> -- CPU is running -- CPU_WriteMem(4 bytes @ 0xE000ED0C) -- CPU is running -- CPU_ReadMem(4 bytes @ 0xE000EDF0) -- CPU is running -- CPU_ReadMem(4 bytes @ 0xE000EDF0) -- CPU is running -- CPU_WriteMem(4 bytes @ 0xE000EDF0) -- CPU is running -- CPU_WriteMem(4 bytes @ 0xE000EDFC) -- CPU is running -- CPU_ReadMem(4 bytes @ 0xE000EDF0)
 -- CPU_WriteMem(4 bytes @ 0xE0002000) -- CPU_ReadMem(4 bytes @ 0xE000EDFC) -- CPU_ReadMem(4 bytes @ 0xE0001000) (0020ms, 0616ms total)
T68B0 001:080 JLINK_Halt()  returns 0x00 (0000ms, 0616ms total)
T68B0 001:080 JLINK_IsHalted()  returns TRUE (0000ms, 0616ms total)
T68B0 001:080 JLINK_ReadMemU32(0xE000EDF0, 0x0001 Items, ...) -- CPU_ReadMem(4 bytes @ 0xE000EDF0) - Data: 03 00 03 00  returns 0x01 (0001ms, 0617ms total)
T68B0 001:081 JLINK_WriteU32(0xE000EDF0, 0xA05F0003) -- CPU_WriteMem(4 bytes @ 0xE000EDF0)  returns 0x00 (0000ms, 0617ms total)
T68B0 001:081 JLINK_WriteU32(0xE000EDFC, 0x01000000) -- CPU_WriteMem(4 bytes @ 0xE000EDFC)  returns 0x00 (0001ms, 0618ms total)
T68B0 001:099 JLINK_GetHWStatus(...)  returns 0x00 (0000ms, 0618ms total)
T68B0 001:107 JLINK_GetNumBPUnits(Type = 0xFFFFFF00)  returns 0x06 (0000ms, 0618ms total)
T68B0 001:107 JLINK_GetNumBPUnits(Type = 0xF0)  returns 0x2000 (0000ms, 0618ms total)
T68B0 001:107 JLINK_GetNumWPUnits()  returns 0x04 (0000ms, 0618ms total)
T68B0 001:115 JLINK_GetSpeed()  returns 0xFA0 (0000ms, 0618ms total)
T68B0 001:121 JLINK_ReadMemU32(0xE000E004, 0x0001 Items, ...) -- CPU_ReadMem(4 bytes @ 0xE000E004) - Data: 01 00 00 00  returns 0x01 (0000ms, 0618ms total)
T68B0 001:121 JLINK_ReadMemU32(0xE000E004, 0x0001 Items, ...) -- CPU_ReadMem(4 bytes @ 0xE000E004) - Data: 01 00 00 00  returns 0x01 (0001ms, 0619ms total)
T68B0 001:122 JLINK_WriteMem(0xE0001000, 0x001C Bytes, ...) - Data: 01 00 00 00 00 00 00 00 00 00 00 00 00 00 00 00 ... -- CPU_WriteMem(28 bytes @ 0xE0001000)  returns 0x1C (0001ms, 0620ms total)
T68B0 001:123 JLINK_ReadMem (0xE0001000, 0x001C Bytes, ...) -- CPU_ReadMem(28 bytes @ 0xE0001000) - Data: 01 00 00 40 00 00 00 00 00 00 00 00 00 00 00 00 ...  returns 0x00 (0001ms, 0621ms total)
T68B0 001:124 JLINK_Halt()  returns 0x00 (0000ms, 0621ms total)
T68B0 001:124 JLINK_IsHalted()  returns TRUE (0000ms, 0621ms total)
T68B0 001:130 JLINK_WriteMem(0x20000000, 0x0178 Bytes, ...) - Data: 00 BE 0A E0 0D 78 2D 06 68 40 08 24 40 00 00 D3 ... -- CPU_WriteMem(376 bytes @ 0x20000000)  returns 0x178 (0005ms, 0626ms total)
T68B0 001:135 JLINK_WriteReg(R0, 0x00000000)  returns 0x00 (0000ms, 0626ms total)
T68B0 001:135 JLINK_WriteReg(R1, 0x00B71B00)  returns 0x00 (0001ms, 0627ms total)
T68B0 001:136 JLINK_WriteReg(R2, 0x00000001)  returns 0x00 (0000ms, 0627ms total)
T68B0 001:136 JLINK_WriteReg(R3, 0x00000000)  returns 0x00 (0000ms, 0627ms total)
T68B0 001:136 JLINK_WriteReg(R4, 0x00000000)  returns 0x00 (0000ms, 0627ms total)
T68B0 001:136 JLINK_WriteReg(R5, 0x00000000)  returns 0x00 (0000ms, 0627ms total)
T68B0 001:136 JLINK_WriteReg(R6, 0x00000000)  returns 0x00 (0000ms, 0627ms total)
T68B0 001:136 JLINK_WriteReg(R7, 0x00000000)  returns 0x00 (0000ms, 0627ms total)
T68B0 001:136 JLINK_WriteReg(R8, 0x00000000)  returns 0x00 (0000ms, 0627ms total)
T68B0 001:136 JLINK_WriteReg(R9, 0x20000170)  returns 0x00 (0000ms, 0627ms total)
T68B0 001:136 JLINK_WriteReg(R10, 0x00000000)  returns 0x00 (0000ms, 0627ms total)
T68B0 001:136 JLINK_WriteReg(R11, 0x00000000)  returns 0x00 (0000ms, 0627ms total)
T68B0 001:136 JLINK_WriteReg(R12, 0x00000000)  returns 0x00 (0000ms, 0627ms total)
T68B0 001:136 JLINK_WriteReg(R13 (SP), 0x20001000)  returns 0x00 (0000ms, 0627ms total)
T68B0 001:136 JLINK_WriteReg(R14, 0x20000001)  returns 0x00 (0000ms, 0627ms total)
T68B0 001:136 JLINK_WriteReg(R15 (PC), 0x2000003C)  returns 0x00 (0000ms, 0627ms total)
T68B0 001:136 JLINK_WriteReg(XPSR, 0x01000000)  returns 0x00 (0000ms, 0627ms total)
T68B0 001:136 JLINK_WriteReg(MSP, 0x20001000)  returns 0x00 (0000ms, 0627ms total)
T68B0 001:136 JLINK_WriteReg(PSP, 0x20001000)  returns 0x00 (0000ms, 0627ms total)
T68B0 001:136 JLINK_WriteReg(CFBP, 0x00000000)  returns 0x00 (0001ms, 0628ms total)
T68B0 001:137 JLINK_SetBPEx(Addr = 0x20000000, Type = 0xFFFFFFF2) -- CPU_ReadMem(4 bytes @ 0x20000000) -- CPU_WriteMem(4 bytes @ 0x20000000) -- CPU_ReadMem(4 bytes @ 0x20000000) -- CPU_WriteMem(4 bytes @ 0x20000000) -- CPU_ReadMem(2 bytes @ 0x20000000)  returns 0x00000001 (0002ms, 0630ms total)
T68B0 001:139 JLINK_Go() -- CPU_WriteMem(2 bytes @ 0x20000000) -- CPU_WriteMem(4 bytes @ 0xE0002008) -- CPU_WriteMem(4 bytes @ 0xE000200C) -- CPU_WriteMem(4 bytes @ 0xE0002010) -- CPU_WriteMem(4 bytes @ 0xE0002014) -- CPU_WriteMem(4 bytes @ 0xE0002018) -- CPU_WriteMem(4 bytes @ 0xE000201C) -- CPU_WriteMem(4 bytes @ 0xE0001004) (0009ms, 0639ms total)
T68B0 001:148 JLINK_IsHalted() -- CPU_ReadMem(2 bytes @ 0x20000000)  returns TRUE (0003ms, 0642ms total)
T68B0 001:151 JLINK_ReadReg(R15 (PC))  returns 0x20000000 (0000ms, 0639ms total)
T68B0 001:151 JLINK_ClrBPEx(BPHandle = 0x00000001)  returns 0x00 (0000ms, 0639ms total)
T68B0 001:151 JLINK_ReadReg(R0)  returns 0x00000000 (0000ms, 0639ms total)
T68B0 001:153 JLINK_WriteReg(R0, 0x00000000)  returns 0x00 (0000ms, 0639ms total)
T68B0 001:153 JLINK_WriteReg(R1, 0x00008000)  returns 0x00 (0000ms, 0639ms total)
T68B0 001:153 JLINK_WriteReg(R2, 0x000000FF)  returns 0x00 (0000ms, 0639ms total)
T68B0 001:153 JLINK_WriteReg(R3, 0x00000000)  returns 0x00 (0000ms, 0639ms total)
T68B0 001:153 JLINK_WriteReg(R4, 0x00000000)  returns 0x00 (0000ms, 0639ms total)
T68B0 001:153 JLINK_WriteReg(R5, 0x00000000)  returns 0x00 (0000ms, 0639ms total)
T68B0 001:153 JLINK_WriteReg(R6, 0x00000000)  returns 0x00 (0000ms, 0639ms total)
T68B0 001:153 JLINK_WriteReg(R7, 0x00000000)  returns 0x00 (0000ms, 0639ms total)
T68B0 001:153 JLINK_WriteReg(R8, 0x00000000)  returns 0x00 (0000ms, 0639ms total)
T68B0 001:153 JLINK_WriteReg(R9, 0x20000170)  returns 0x00 (0000ms, 0639ms total)
T68B0 001:153 JLINK_WriteReg(R10, 0x00000000)  returns 0x00 (0000ms, 0639ms total)
T68B0 001:153 JLINK_WriteReg(R11, 0x00000000)  returns 0x00 (0000ms, 0639ms total)
T68B0 001:153 JLINK_WriteReg(R12, 0x00000000)  returns 0x00 (0000ms, 0639ms total)
T68B0 001:153 JLINK_WriteReg(R13 (SP), 0x20001000)  returns 0x00 (0000ms, 0639ms total)
T68B0 001:153 JLINK_WriteReg(R14, 0x20000001)  returns 0x00 (0000ms, 0639ms total)
T68B0 001:153 JLINK_WriteReg(R15 (PC), 0x20000020)  returns 0x00 (0000ms, 0639ms total)
T68B0 001:153 JLINK_WriteReg(XPSR, 0x01000000)  returns 0x00 (0000ms, 0639ms total)
T68B0 001:153 JLINK_WriteReg(MSP, 0x20001000)  returns 0x00 (0000ms, 0639ms total)
T68B0 001:153 JLINK_WriteReg(PSP, 0x20001000)  returns 0x00 (0000ms, 0639ms total)
T68B0 001:153 JLINK_WriteReg(CFBP, 0x00000000)  returns 0x00 (0000ms, 0639ms total)
T68B0 001:153 JLINK_SetBPEx(Addr = 0x20000000, Type = 0xFFFFFFF2)  returns 0x00000002 (0000ms, 0639ms total)
T68B0 001:153 JLINK_Go() (0002ms, 0641ms total)
T68B0 001:155 JLINK_IsHalted() -- CPU_ReadMem(2 bytes @ 0x20000000)  returns TRUE (0005ms, 0646ms total)
T68B0 001:160 JLINK_ReadReg(R15 (PC))  returns 0x20000000 (0000ms, 0641ms total)
T68B0 001:160 JLINK_ClrBPEx(BPHandle = 0x00000002)  returns 0x00 (0000ms, 0641ms total)
T68B0 001:160 JLINK_ReadReg(R0)  returns 0x00000001 (0000ms, 0641ms total)
T68B0 001:160 JLINK_WriteReg(R0, 0x00000000)  returns 0x00 (0000ms, 0641ms total)
T68B0 001:160 JLINK_WriteReg(R1, 0x00008000)  returns 0x00 (0000ms, 0641ms total)
T68B0 001:160 JLINK_WriteReg(R2, 0x000000FF)  returns 0x00 (0000ms, 0641ms total)
T68B0 001:160 JLINK_WriteReg(R3, 0x00000000)  returns 0x00 (0000ms, 0641ms total)
T68B0 001:160 JLINK_WriteReg(R4, 0x00000000)  returns 0x00 (0000ms, 0641ms total)
T68B0 001:160 JLINK_WriteReg(R5, 0x00000000)  returns 0x00 (0000ms, 0641ms total)
T68B0 001:160 JLINK_WriteReg(R6, 0x00000000)  returns 0x00 (0000ms, 0641ms total)
T68B0 001:160 JLINK_WriteReg(R7, 0x00000000)  returns 0x00 (0000ms, 0641ms total)
T68B0 001:160 JLINK_WriteReg(R8, 0x00000000)  returns 0x00 (0000ms, 0641ms total)
T68B0 001:160 JLINK_WriteReg(R9, 0x20000170)  returns 0x00 (0001ms, 0642ms total)
T68B0 001:161 JLINK_WriteReg(R10, 0x00000000)  returns 0x00 (0000ms, 0642ms total)
T68B0 001:161 JLINK_WriteReg(R11, 0x00000000)  returns 0x00 (0000ms, 0642ms total)
T68B0 001:161 JLINK_WriteReg(R12, 0x00000000)  returns 0x00 (0000ms, 0642ms total)
T68B0 001:161 JLINK_WriteReg(R13 (SP), 0x20001000)  returns 0x00 (0000ms, 0642ms total)
T68B0 001:161 JLINK_WriteReg(R14, 0x20000001)  returns 0x00 (0000ms, 0642ms total)
T68B0 001:161 JLINK_WriteReg(R15 (PC), 0x200000A2)  returns 0x00 (0000ms, 0642ms total)
T68B0 001:161 JLINK_WriteReg(XPSR, 0x01000000)  returns 0x00 (0000ms, 0642ms total)
T68B0 001:161 JLINK_WriteReg(MSP, 0x20001000)  returns 0x00 (0000ms, 0642ms total)
T68B0 001:161 JLINK_WriteReg(PSP, 0x20001000)  returns 0x00 (0000ms, 0642ms total)
T68B0 001:161 JLINK_WriteReg(CFBP, 0x00000000)  returns 0x00 (0000ms, 0642ms total)
T68B0 001:161 JLINK_SetBPEx(Addr = 0x20000000, Type = 0xFFFFFFF2)  returns 0x00000003 (0000ms, 0642ms total)
T68B0 001:161 JLINK_Go() (0003ms, 0645ms total)
T68B0 001:164 JLINK_IsHalted()  returns FALSE (0000ms, 0645ms total)
T68B0 001:266 JLINK_IsHalted() -- CPU_ReadMem(2 bytes @ 0x20000000)  returns TRUE (0004ms, 0649ms total)
T68B0 001:270 JLINK_ReadReg(R15 (PC))  returns 0x20000000 (0000ms, 0645ms total)
T68B0 001:270 JLINK_ClrBPEx(BPHandle = 0x00000003)  returns 0x00 (0000ms, 0645ms total)
T68B0 001:270 JLINK_ReadReg(R0)  returns 0x00000000 (0000ms, 0645ms total)
T68B0 001:271 JLINK_WriteReg(R0, 0x00008000)  returns 0x00 (0000ms, 0645ms total)
T68B0 001:271 JLINK_WriteReg(R1, 0x00008000)  returns 0x00 (0000ms, 0645ms total)
T68B0 001:271 JLINK_WriteReg(R2, 0x000000FF)  returns 0x00 (0000ms, 0645ms total)
T68B0 001:271 JLINK_WriteReg(R3, 0x00000000)  returns 0x00 (0000ms, 0645ms total)
T68B0 001:272 JLINK_WriteReg(R4, 0x00000000)  returns 0x00 (0000ms, 0645ms total)
T68B0 001:272 JLINK_WriteReg(R5, 0x00000000)  returns 0x00 (0000ms, 0645ms total)
T68B0 001:272 JLINK_WriteReg(R6, 0x00000000)  returns 0x00 (0000ms, 0645ms total)
T68B0 001:272 JLINK_WriteReg(R7, 0x00000000)  returns 0x00 (0000ms, 0645ms total)
T68B0 001:272 JLINK_WriteReg(R8, 0x00000000)  returns 0x00 (0000ms, 0645ms total)
T68B0 001:272 JLINK_WriteReg(R9, 0x20000170)  returns 0x00 (0000ms, 0645ms total)
T68B0 001:272 JLINK_WriteReg(R10, 0x00000000)  returns 0x00 (0000ms, 0645ms total)
T68B0 001:272 JLINK_WriteReg(R11, 0x00000000)  returns 0x00 (0000ms, 0645ms total)
T68B0 001:272 JLINK_WriteReg(R12, 0x00000000)  returns 0x00 (0000ms, 0645ms total)
T68B0 001:272 JLINK_WriteReg(R13 (SP), 0x20001000)  returns 0x00 (0000ms, 0645ms total)
T68B0 001:272 JLINK_WriteReg(R14, 0x20000001)  returns 0x00 (0000ms, 0645ms total)
T68B0 001:272 JLINK_WriteReg(R15 (PC), 0x20000020)  returns 0x00 (0000ms, 0645ms total)
T68B0 001:272 JLINK_WriteReg(XPSR, 0x01000000)  returns 0x00 (0000ms, 0645ms total)
T68B0 001:272 JLINK_WriteReg(MSP, 0x20001000)  returns 0x00 (0000ms, 0645ms total)
T68B0 001:273 JLINK_WriteReg(PSP, 0x20001000)  returns 0x00 (0000ms, 0646ms total)
T68B0 001:273 JLINK_WriteReg(CFBP, 0x00000000)  returns 0x00 (0000ms, 0646ms total)
T68B0 001:273 JLINK_SetBPEx(Addr = 0x20000000, Type = 0xFFFFFFF2)  returns 0x00000004 (0000ms, 0646ms total)
T68B0 001:273 JLINK_Go() (0002ms, 0648ms total)
T68B0 001:275 JLINK_IsHalted() -- CPU_ReadMem(2 bytes @ 0x20000000)  returns TRUE (0004ms, 0652ms total)
T68B0 001:279 JLINK_ReadReg(R15 (PC))  returns 0x20000000 (0000ms, 0648ms total)
T68B0 001:279 JLINK_ClrBPEx(BPHandle = 0x00000004)  returns 0x00 (0000ms, 0648ms total)
T68B0 001:279 JLINK_ReadReg(R0)  returns 0x00000001 (0000ms, 0648ms total)
T68B0 001:279 JLINK_WriteReg(R0, 0x00008000)  returns 0x00 (0000ms, 0648ms total)
T68B0 001:279 JLINK_WriteReg(R1, 0x00008000)  returns 0x00 (0000ms, 0648ms total)
T68B0 001:279 JLINK_WriteReg(R2, 0x000000FF)  returns 0x00 (0000ms, 0648ms total)
T68B0 001:279 JLINK_WriteReg(R3, 0x00000000)  returns 0x00 (0001ms, 0649ms total)
T68B0 001:280 JLINK_WriteReg(R4, 0x00000000)  returns 0x00 (0000ms, 0649ms total)
T68B0 001:280 JLINK_WriteReg(R5, 0x00000000)  returns 0x00 (0000ms, 0649ms total)
T68B0 001:280 JLINK_WriteReg(R6, 0x00000000)  returns 0x00 (0000ms, 0649ms total)
T68B0 001:280 JLINK_WriteReg(R7, 0x00000000)  returns 0x00 (0000ms, 0649ms total)
T68B0 001:280 JLINK_WriteReg(R8, 0x00000000)  returns 0x00 (0000ms, 0649ms total)
T68B0 001:280 JLINK_WriteReg(R9, 0x20000170)  returns 0x00 (0000ms, 0649ms total)
T68B0 001:280 JLINK_WriteReg(R10, 0x00000000)  returns 0x00 (0000ms, 0649ms total)
T68B0 001:280 JLINK_WriteReg(R11, 0x00000000)  returns 0x00 (0000ms, 0649ms total)
T68B0 001:280 JLINK_WriteReg(R12, 0x00000000)  returns 0x00 (0000ms, 0649ms total)
T68B0 001:280 JLINK_WriteReg(R13 (SP), 0x20001000)  returns 0x00 (0000ms, 0649ms total)
T68B0 001:280 JLINK_WriteReg(R14, 0x20000001)  returns 0x00 (0000ms, 0649ms total)
T68B0 001:280 JLINK_WriteReg(R15 (PC), 0x200000A2)  returns 0x00 (0000ms, 0649ms total)
T68B0 001:280 JLINK_WriteReg(XPSR, 0x01000000)  returns 0x00 (0000ms, 0649ms total)
T68B0 001:280 JLINK_WriteReg(MSP, 0x20001000)  returns 0x00 (0000ms, 0649ms total)
T68B0 001:281 JLINK_WriteReg(PSP, 0x20001000)  returns 0x00 (0000ms, 0649ms total)
T68B0 001:281 JLINK_WriteReg(CFBP, 0x00000000)  returns 0x00 (0000ms, 0649ms total)
T68B0 001:281 JLINK_SetBPEx(Addr = 0x20000000, Type = 0xFFFFFFF2)  returns 0x00000005 (0000ms, 0649ms total)
T68B0 001:281 JLINK_Go() (0001ms, 0650ms total)
T68B0 001:282 JLINK_IsHalted()  returns FALSE (0001ms, 0651ms total)
T68B0 001:287 JLINK_IsHalted()  returns FALSE (0001ms, 0651ms total)
T68B0 001:289 JLINK_IsHalted()  returns FALSE (0001ms, 0651ms total)
T68B0 001:292 JLINK_IsHalted()  returns FALSE (0000ms, 0650ms total)
T68B0 001:294 JLINK_IsHalted()  returns FALSE (0001ms, 0651ms total)
T68B0 001:299 JLINK_IsHalted()  returns FALSE (0000ms, 0650ms total)
T68B0 001:302 JLINK_IsHalted()  returns FALSE (0000ms, 0650ms total)
T68B0 001:305 JLINK_IsHalted()  returns FALSE (0000ms, 0650ms total)
T68B0 001:307 JLINK_IsHalted()  returns FALSE (0000ms, 0650ms total)
T68B0 001:314 JLINK_IsHalted()  returns FALSE (0001ms, 0651ms total)
T68B0 001:317 JLINK_IsHalted()  returns FALSE (0000ms, 0650ms total)
T68B0 001:320 JLINK_IsHalted()  returns FALSE (0001ms, 0651ms total)
T68B0 001:323 JLINK_IsHalted()  returns FALSE (0001ms, 0651ms total)
T68B0 001:326 JLINK_IsHalted()  returns FALSE (0001ms, 0651ms total)
T68B0 001:329 JLINK_IsHalted()  returns FALSE (0001ms, 0651ms total)
T68B0 001:332 JLINK_IsHalted()  returns FALSE (0000ms, 0650ms total)
T68B0 001:335 JLINK_IsHalted()  returns FALSE (0000ms, 0650ms total)
T68B0 001:338 JLINK_IsHalted()  returns FALSE (0000ms, 0650ms total)
T68B0 001:346 JLINK_IsHalted()  returns FALSE (0001ms, 0651ms total)
T68B0 001:349 JLINK_IsHalted()  returns FALSE (0001ms, 0651ms total)
T68B0 001:352 JLINK_IsHalted()  returns FALSE (0001ms, 0651ms total)
T68B0 001:355 JLINK_IsHalted()  returns FALSE (0001ms, 0651ms total)
T68B0 001:358 JLINK_IsHalted()  returns FALSE (0001ms, 0651ms total)
T68B0 001:361 JLINK_IsHalted()  returns FALSE (0001ms, 0651ms total)
T68B0 001:364 JLINK_IsHalted()  returns FALSE (0001ms, 0651ms total)
T68B0 001:367 JLINK_IsHalted()  returns FALSE (0001ms, 0651ms total)
T68B0 001:370 JLINK_IsHalted()  returns FALSE (0001ms, 0651ms total)
T68B0 001:373 JLINK_IsHalted()  returns FALSE (0001ms, 0651ms total)
T68B0 001:376 JLINK_IsHalted()  returns FALSE (0001ms, 0651ms total)
T68B0 001:379 JLINK_IsHalted()  returns FALSE (0001ms, 0651ms total)
T68B0 001:382 JLINK_IsHalted()  returns FALSE (0001ms, 0651ms total)
T68B0 001:385 JLINK_IsHalted() -- CPU_ReadMem(2 bytes @ 0x20000000)  returns TRUE (0005ms, 0655ms total)
T68B0 001:390 JLINK_ReadReg(R15 (PC))  returns 0x20000000 (0000ms, 0650ms total)
T68B0 001:390 JLINK_ClrBPEx(BPHandle = 0x00000005)  returns 0x00 (0000ms, 0650ms total)
T68B0 001:390 JLINK_ReadReg(R0)  returns 0x00000000 (0000ms, 0650ms total)
T68B0 001:391 JLINK_WriteReg(R0, 0x00000001)  returns 0x00 (0000ms, 0650ms total)
T68B0 001:391 JLINK_WriteReg(R1, 0x00008000)  returns 0x00 (0000ms, 0650ms total)
T68B0 001:391 JLINK_WriteReg(R2, 0x000000FF)  returns 0x00 (0000ms, 0650ms total)
T68B0 001:391 JLINK_WriteReg(R3, 0x00000000)  returns 0x00 (0001ms, 0651ms total)
T68B0 001:392 JLINK_WriteReg(R4, 0x00000000)  returns 0x00 (0000ms, 0651ms total)
T68B0 001:392 JLINK_WriteReg(R5, 0x00000000)  returns 0x00 (0000ms, 0651ms total)
T68B0 001:392 JLINK_WriteReg(R6, 0x00000000)  returns 0x00 (0000ms, 0651ms total)
T68B0 001:392 JLINK_WriteReg(R7, 0x00000000)  returns 0x00 (0000ms, 0651ms total)
T68B0 001:392 JLINK_WriteReg(R8, 0x00000000)  returns 0x00 (0000ms, 0651ms total)
T68B0 001:392 JLINK_WriteReg(R9, 0x20000170)  returns 0x00 (0000ms, 0651ms total)
T68B0 001:392 JLINK_WriteReg(R10, 0x00000000)  returns 0x00 (0000ms, 0651ms total)
T68B0 001:392 JLINK_WriteReg(R11, 0x00000000)  returns 0x00 (0001ms, 0652ms total)
T68B0 001:393 JLINK_WriteReg(R12, 0x00000000)  returns 0x00 (0000ms, 0652ms total)
T68B0 001:393 JLINK_WriteReg(R13 (SP), 0x20001000)  returns 0x00 (0000ms, 0652ms total)
T68B0 001:393 JLINK_WriteReg(R14, 0x20000001)  returns 0x00 (0000ms, 0652ms total)
T68B0 001:393 JLINK_WriteReg(R15 (PC), 0x2000005A)  returns 0x00 (0000ms, 0652ms total)
T68B0 001:393 JLINK_WriteReg(XPSR, 0x01000000)  returns 0x00 (0000ms, 0652ms total)
T68B0 001:393 JLINK_WriteReg(MSP, 0x20001000)  returns 0x00 (0000ms, 0652ms total)
T68B0 001:393 JLINK_WriteReg(PSP, 0x20001000)  returns 0x00 (0000ms, 0652ms total)
T68B0 001:393 JLINK_WriteReg(CFBP, 0x00000000)  returns 0x00 (0000ms, 0652ms total)
T68B0 001:393 JLINK_SetBPEx(Addr = 0x20000000, Type = 0xFFFFFFF2)  returns 0x00000006 (0000ms, 0652ms total)
T68B0 001:394 JLINK_Go() (0002ms, 0654ms total)
T68B0 001:396 JLINK_IsHalted() -- CPU_ReadMem(2 bytes @ 0x20000000)  returns TRUE (0005ms, 0659ms total)
T68B0 001:401 JLINK_ReadReg(R15 (PC))  returns 0x20000000 (0000ms, 0654ms total)
T68B0 001:401 JLINK_ClrBPEx(BPHandle = 0x00000006)  returns 0x00 (0000ms, 0654ms total)
T68B0 001:401 JLINK_ReadReg(R0)  returns 0x00000000 (0000ms, 0654ms total)
T68B0 001:477 JLINK_WriteMem(0x20000000, 0x0178 Bytes, ...) - Data: 00 BE 0A E0 0D 78 2D 06 68 40 08 24 40 00 00 D3 ... -- CPU_WriteMem(376 bytes @ 0x20000000)  returns 0x178 (0005ms, 0659ms total)
T68B0 001:483 JLINK_WriteReg(R0, 0x00000000)  returns 0x00 (0000ms, 0659ms total)
T68B0 001:483 JLINK_WriteReg(R1, 0x00B71B00)  returns 0x00 (0000ms, 0659ms total)
T68B0 001:483 JLINK_WriteReg(R2, 0x00000002)  returns 0x00 (0000ms, 0659ms total)
T68B0 001:483 JLINK_WriteReg(R3, 0x00000000)  returns 0x00 (0000ms, 0659ms total)
T68B0 001:483 JLINK_WriteReg(R4, 0x00000000)  returns 0x00 (0000ms, 0659ms total)
T68B0 001:483 JLINK_WriteReg(R5, 0x00000000)  returns 0x00 (0000ms, 0659ms total)
T68B0 001:483 JLINK_WriteReg(R6, 0x00000000)  returns 0x00 (0000ms, 0659ms total)
T68B0 001:483 JLINK_WriteReg(R7, 0x00000000)  returns 0x00 (0000ms, 0659ms total)
T68B0 001:483 JLINK_WriteReg(R8, 0x00000000)  returns 0x00 (0001ms, 0660ms total)
T68B0 001:484 JLINK_WriteReg(R9, 0x20000170)  returns 0x00 (0000ms, 0660ms total)
T68B0 001:484 JLINK_WriteReg(R10, 0x00000000)  returns 0x00 (0000ms, 0660ms total)
T68B0 001:484 JLINK_WriteReg(R11, 0x00000000)  returns 0x00 (0000ms, 0660ms total)
T68B0 001:484 JLINK_WriteReg(R12, 0x00000000)  returns 0x00 (0001ms, 0661ms total)
T68B0 001:485 JLINK_WriteReg(R13 (SP), 0x20001000)  returns 0x00 (0000ms, 0661ms total)
T68B0 001:485 JLINK_WriteReg(R14, 0x20000001)  returns 0x00 (0000ms, 0661ms total)
T68B0 001:485 JLINK_WriteReg(R15 (PC), 0x2000003C)  returns 0x00 (0000ms, 0661ms total)
T68B0 001:485 JLINK_WriteReg(XPSR, 0x01000000)  returns 0x00 (0000ms, 0661ms total)
T68B0 001:485 JLINK_WriteReg(MSP, 0x20001000)  returns 0x00 (0000ms, 0661ms total)
T68B0 001:485 JLINK_WriteReg(PSP, 0x20001000)  returns 0x00 (0000ms, 0661ms total)
T68B0 001:485 JLINK_WriteReg(CFBP, 0x00000000)  returns 0x00 (0000ms, 0661ms total)
T68B0 001:485 JLINK_SetBPEx(Addr = 0x20000000, Type = 0xFFFFFFF2) -- CPU_ReadMem(4 bytes @ 0x20000000) -- CPU_WriteMem(4 bytes @ 0x20000000) -- CPU_ReadMem(4 bytes @ 0x20000000) -- CPU_WriteMem(4 bytes @ 0x20000000) -- CPU_ReadMem(2 bytes @ 0x20000000)  returns 0x00000007 (0005ms, 0666ms total)
T68B0 001:490 JLINK_Go() -- CPU_WriteMem(2 bytes @ 0x20000000) (0002ms, 0668ms total)
T68B0 001:492 JLINK_IsHalted() -- CPU_ReadMem(2 bytes @ 0x20000000)  returns TRUE (0004ms, 0672ms total)
T68B0 001:496 JLINK_ReadReg(R15 (PC))  returns 0x20000000 (0000ms, 0668ms total)
T68B0 001:496 JLINK_ClrBPEx(BPHandle = 0x00000007)  returns 0x00 (0001ms, 0669ms total)
T68B0 001:497 JLINK_ReadReg(R0)  returns 0x00000000 (0000ms, 0669ms total)
T68B0 001:498 JLINK_WriteMem(0x200001A0, 0x0400 Bytes, ...) - Data: 88 EB 00 20 1D 02 00 00 ED 2C 00 00 FB 18 00 00 ... -- CPU_WriteMem(1024 bytes @ 0x200001A0)  returns 0x400 (0012ms, 0681ms total)
T68B0 001:510 JLINK_WriteReg(R0, 0x00000000)  returns 0x00 (0001ms, 0682ms total)
T68B0 001:511 JLINK_WriteReg(R1, 0x00000400)  returns 0x00 (0000ms, 0682ms total)
T68B0 001:511 JLINK_WriteReg(R2, 0x200001A0)  returns 0x00 (0000ms, 0682ms total)
T68B0 001:511 JLINK_WriteReg(R3, 0x00000000)  returns 0x00 (0000ms, 0682ms total)
T68B0 001:511 JLINK_WriteReg(R4, 0x00000000)  returns 0x00 (0000ms, 0682ms total)
T68B0 001:511 JLINK_WriteReg(R5, 0x00000000)  returns 0x00 (0000ms, 0682ms total)
T68B0 001:511 JLINK_WriteReg(R6, 0x00000000)  returns 0x00 (0000ms, 0682ms total)
T68B0 001:511 JLINK_WriteReg(R7, 0x00000000)  returns 0x00 (0000ms, 0682ms total)
T68B0 001:511 JLINK_WriteReg(R8, 0x00000000)  returns 0x00 (0000ms, 0682ms total)
T68B0 001:511 JLINK_WriteReg(R9, 0x20000170)  returns 0x00 (0000ms, 0682ms total)
T68B0 001:512 JLINK_WriteReg(R10, 0x00000000)  returns 0x00 (0000ms, 0683ms total)
T68B0 001:512 JLINK_WriteReg(R11, 0x00000000)  returns 0x00 (0000ms, 0683ms total)
T68B0 001:512 JLINK_WriteReg(R12, 0x00000000)  returns 0x00 (0000ms, 0683ms total)
T68B0 001:512 JLINK_WriteReg(R13 (SP), 0x20001000)  returns 0x00 (0000ms, 0683ms total)
T68B0 001:512 JLINK_WriteReg(R14, 0x20000001)  returns 0x00 (0000ms, 0683ms total)
T68B0 001:512 JLINK_WriteReg(R15 (PC), 0x200000E8)  returns 0x00 (0000ms, 0683ms total)
T68B0 001:512 JLINK_WriteReg(XPSR, 0x01000000)  returns 0x00 (0000ms, 0683ms total)
T68B0 001:512 JLINK_WriteReg(MSP, 0x20001000)  returns 0x00 (0000ms, 0683ms total)
T68B0 001:512 JLINK_WriteReg(PSP, 0x20001000)  returns 0x00 (0001ms, 0684ms total)
T68B0 001:513 JLINK_WriteReg(CFBP, 0x00000000)  returns 0x00 (0000ms, 0684ms total)
T68B0 001:513 JLINK_SetBPEx(Addr = 0x20000000, Type = 0xFFFFFFF2)  returns 0x00000008 (0000ms, 0684ms total)
T68B0 001:513 JLINK_Go() (0002ms, 0686ms total)
T68B0 001:515 JLINK_IsHalted()  returns FALSE (0001ms, 0687ms total)
T68B0 001:524 JLINK_IsHalted() -- CPU_ReadMem(2 bytes @ 0x20000000)  returns TRUE (0004ms, 0690ms total)
T68B0 001:528 JLINK_ReadReg(R15 (PC))  returns 0x20000000 (0000ms, 0686ms total)
T68B0 001:528 JLINK_ClrBPEx(BPHandle = 0x00000008)  returns 0x00 (0000ms, 0686ms total)
T68B0 001:528 JLINK_ReadReg(R0)  returns 0x00000000 (0000ms, 0686ms total)
T68B0 001:532 JLINK_WriteMem(0x200001A0, 0x0400 Bytes, ...) - Data: 1B 03 00 00 1B 03 00 00 1B 03 00 00 1B 03 00 00 ... -- CPU_WriteMem(1024 bytes @ 0x200001A0)  returns 0x400 (0012ms, 0698ms total)
T68B0 001:544 JLINK_WriteReg(R0, 0x00000400)  returns 0x00 (0000ms, 0698ms total)
T68B0 001:544 JLINK_WriteReg(R1, 0x00000400)  returns 0x00 (0000ms, 0698ms total)
T68B0 001:544 JLINK_WriteReg(R2, 0x200001A0)  returns 0x00 (0000ms, 0698ms total)
T68B0 001:545 JLINK_WriteReg(R3, 0x00000000)  returns 0x00 (0000ms, 0699ms total)
T68B0 001:545 JLINK_WriteReg(R4, 0x00000000)  returns 0x00 (0000ms, 0699ms total)
T68B0 001:545 JLINK_WriteReg(R5, 0x00000000)  returns 0x00 (0000ms, 0699ms total)
T68B0 001:545 JLINK_WriteReg(R6, 0x00000000)  returns 0x00 (0000ms, 0699ms total)
T68B0 001:545 JLINK_WriteReg(R7, 0x00000000)  returns 0x00 (0000ms, 0699ms total)
T68B0 001:545 JLINK_WriteReg(R8, 0x00000000)  returns 0x00 (0000ms, 0699ms total)
T68B0 001:545 JLINK_WriteReg(R9, 0x20000170)  returns 0x00 (0000ms, 0699ms total)
T68B0 001:545 JLINK_WriteReg(R10, 0x00000000)  returns 0x00 (0000ms, 0699ms total)
T68B0 001:545 JLINK_WriteReg(R11, 0x00000000)  returns 0x00 (0000ms, 0699ms total)
T68B0 001:545 JLINK_WriteReg(R12, 0x00000000)  returns 0x00 (0001ms, 0700ms total)
T68B0 001:546 JLINK_WriteReg(R13 (SP), 0x20001000)  returns 0x00 (0000ms, 0700ms total)
T68B0 001:546 JLINK_WriteReg(R14, 0x20000001)  returns 0x00 (0000ms, 0700ms total)
T68B0 001:546 JLINK_WriteReg(R15 (PC), 0x200000E8)  returns 0x00 (0000ms, 0700ms total)
T68B0 001:546 JLINK_WriteReg(XPSR, 0x01000000)  returns 0x00 (0000ms, 0700ms total)
T68B0 001:546 JLINK_WriteReg(MSP, 0x20001000)  returns 0x00 (0000ms, 0700ms total)
T68B0 001:546 JLINK_WriteReg(PSP, 0x20001000)  returns 0x00 (0000ms, 0700ms total)
T68B0 001:546 JLINK_WriteReg(CFBP, 0x00000000)  returns 0x00 (0000ms, 0700ms total)
T68B0 001:546 JLINK_SetBPEx(Addr = 0x20000000, Type = 0xFFFFFFF2)  returns 0x00000009 (0000ms, 0700ms total)
T68B0 001:546 JLINK_Go() (0003ms, 0703ms total)
T68B0 001:549 JLINK_IsHalted()  returns FALSE (0001ms, 0704ms total)
T68B0 001:552 JLINK_IsHalted()  returns FALSE (0000ms, 0703ms total)
T68B0 001:555 JLINK_IsHalted() -- CPU_ReadMem(2 bytes @ 0x20000000)  returns TRUE (0004ms, 0707ms total)
T68B0 001:559 JLINK_ReadReg(R15 (PC))  returns 0x20000000 (0000ms, 0703ms total)
T68B0 001:559 JLINK_ClrBPEx(BPHandle = 0x00000009)  returns 0x00 (0000ms, 0703ms total)
T68B0 001:559 JLINK_ReadReg(R0)  returns 0x00000000 (0000ms, 0703ms total)
T68B0 001:561 JLINK_WriteMem(0x200001A0, 0x0400 Bytes, ...) - Data: 03 98 00 2D 09 DD 42 F2 1F 01 4A 46 08 44 03 A9 ... -- CPU_WriteMem(1024 bytes @ 0x200001A0)  returns 0x400 (0013ms, 0716ms total)
T68B0 001:574 JLINK_WriteReg(R0, 0x00000800)  returns 0x00 (0000ms, 0716ms total)
T68B0 001:574 JLINK_WriteReg(R1, 0x00000400)  returns 0x00 (0000ms, 0716ms total)
T68B0 001:574 JLINK_WriteReg(R2, 0x200001A0)  returns 0x00 (0000ms, 0716ms total)
T68B0 001:574 JLINK_WriteReg(R3, 0x00000000)  returns 0x00 (0000ms, 0716ms total)
T68B0 001:574 JLINK_WriteReg(R4, 0x00000000)  returns 0x00 (0000ms, 0716ms total)
T68B0 001:574 JLINK_WriteReg(R5, 0x00000000)  returns 0x00 (0000ms, 0716ms total)
T68B0 001:574 JLINK_WriteReg(R6, 0x00000000)  returns 0x00 (0001ms, 0717ms total)
T68B0 001:575 JLINK_WriteReg(R7, 0x00000000)  returns 0x00 (0000ms, 0717ms total)
T68B0 001:575 JLINK_WriteReg(R8, 0x00000000)  returns 0x00 (0000ms, 0717ms total)
T68B0 001:575 JLINK_WriteReg(R9, 0x20000170)  returns 0x00 (0000ms, 0717ms total)
T68B0 001:575 JLINK_WriteReg(R10, 0x00000000)  returns 0x00 (0000ms, 0717ms total)
T68B0 001:575 JLINK_WriteReg(R11, 0x00000000)  returns 0x00 (0000ms, 0717ms total)
T68B0 001:575 JLINK_WriteReg(R12, 0x00000000)  returns 0x00 (0000ms, 0717ms total)
T68B0 001:575 JLINK_WriteReg(R13 (SP), 0x20001000)  returns 0x00 (0000ms, 0717ms total)
T68B0 001:575 JLINK_WriteReg(R14, 0x20000001)  returns 0x00 (0000ms, 0717ms total)
T68B0 001:575 JLINK_WriteReg(R15 (PC), 0x200000E8)  returns 0x00 (0000ms, 0717ms total)
T68B0 001:575 JLINK_WriteReg(XPSR, 0x01000000)  returns 0x00 (0001ms, 0718ms total)
T68B0 001:576 JLINK_WriteReg(MSP, 0x20001000)  returns 0x00 (0000ms, 0718ms total)
T68B0 001:576 JLINK_WriteReg(PSP, 0x20001000)  returns 0x00 (0000ms, 0718ms total)
T68B0 001:576 JLINK_WriteReg(CFBP, 0x00000000)  returns 0x00 (0000ms, 0718ms total)
T68B0 001:576 JLINK_SetBPEx(Addr = 0x20000000, Type = 0xFFFFFFF2)  returns 0x0000000A (0000ms, 0718ms total)
T68B0 001:576 JLINK_Go() (0002ms, 0720ms total)
T68B0 001:579 JLINK_IsHalted()  returns FALSE (0000ms, 0721ms total)
T68B0 001:585 JLINK_IsHalted() -- CPU_ReadMem(2 bytes @ 0x20000000)  returns TRUE (0004ms, 0725ms total)
T68B0 001:589 JLINK_ReadReg(R15 (PC))  returns 0x20000000 (0000ms, 0721ms total)
T68B0 001:589 JLINK_ClrBPEx(BPHandle = 0x0000000A)  returns 0x00 (0001ms, 0722ms total)
T68B0 001:590 JLINK_ReadReg(R0)  returns 0x00000000 (0000ms, 0722ms total)
T68B0 001:593 JLINK_WriteMem(0x200001A0, 0x0400 Bytes, ...) - Data: 04 04 52 1B A3 41 4F F0 00 03 48 BF 0A 32 00 D5 ... -- CPU_WriteMem(1024 bytes @ 0x200001A0)  returns 0x400 (0012ms, 0734ms total)
T68B0 001:605 JLINK_WriteReg(R0, 0x00000C00)  returns 0x00 (0001ms, 0735ms total)
T68B0 001:606 JLINK_WriteReg(R1, 0x00000400)  returns 0x00 (0000ms, 0735ms total)
T68B0 001:606 JLINK_WriteReg(R2, 0x200001A0)  returns 0x00 (0000ms, 0735ms total)
T68B0 001:606 JLINK_WriteReg(R3, 0x00000000)  returns 0x00 (0000ms, 0735ms total)
T68B0 001:606 JLINK_WriteReg(R4, 0x00000000)  returns 0x00 (0000ms, 0735ms total)
T68B0 001:606 JLINK_WriteReg(R5, 0x00000000)  returns 0x00 (0000ms, 0735ms total)
T68B0 001:606 JLINK_WriteReg(R6, 0x00000000)  returns 0x00 (0000ms, 0735ms total)
T68B0 001:606 JLINK_WriteReg(R7, 0x00000000)  returns 0x00 (0000ms, 0735ms total)
T68B0 001:606 JLINK_WriteReg(R8, 0x00000000)  returns 0x00 (0000ms, 0735ms total)
T68B0 001:606 JLINK_WriteReg(R9, 0x20000170)  returns 0x00 (0000ms, 0735ms total)
T68B0 001:606 JLINK_WriteReg(R10, 0x00000000)  returns 0x00 (0000ms, 0735ms total)
T68B0 001:606 JLINK_WriteReg(R11, 0x00000000)  returns 0x00 (0001ms, 0736ms total)
T68B0 001:607 JLINK_WriteReg(R12, 0x00000000)  returns 0x00 (0000ms, 0736ms total)
T68B0 001:607 JLINK_WriteReg(R13 (SP), 0x20001000)  returns 0x00 (0000ms, 0736ms total)
T68B0 001:607 JLINK_WriteReg(R14, 0x20000001)  returns 0x00 (0000ms, 0736ms total)
T68B0 001:607 JLINK_WriteReg(R15 (PC), 0x200000E8)  returns 0x00 (0000ms, 0736ms total)
T68B0 001:607 JLINK_WriteReg(XPSR, 0x01000000)  returns 0x00 (0000ms, 0736ms total)
T68B0 001:607 JLINK_WriteReg(MSP, 0x20001000)  returns 0x00 (0000ms, 0736ms total)
T68B0 001:607 JLINK_WriteReg(PSP, 0x20001000)  returns 0x00 (0000ms, 0736ms total)
T68B0 001:607 JLINK_WriteReg(CFBP, 0x00000000)  returns 0x00 (0000ms, 0736ms total)
T68B0 001:607 JLINK_SetBPEx(Addr = 0x20000000, Type = 0xFFFFFFF2)  returns 0x0000000B (0001ms, 0737ms total)
T68B0 001:608 JLINK_Go() (0002ms, 0739ms total)
T68B0 001:610 JLINK_IsHalted()  returns FALSE (0001ms, 0740ms total)
T68B0 001:613 JLINK_IsHalted()  returns FALSE (0001ms, 0740ms total)
T68B0 001:616 JLINK_IsHalted() -- CPU_ReadMem(2 bytes @ 0x20000000)  returns TRUE (0004ms, 0743ms total)
T68B0 001:620 JLINK_ReadReg(R15 (PC))  returns 0x20000000 (0001ms, 0740ms total)
T68B0 001:621 JLINK_ClrBPEx(BPHandle = 0x0000000B)  returns 0x00 (0000ms, 0740ms total)
T68B0 001:621 JLINK_ReadReg(R0)  returns 0x00000000 (0000ms, 0740ms total)
T68B0 001:622 JLINK_WriteMem(0x200001A0, 0x0400 Bytes, ...) - Data: 07 42 B2 EB 07 42 61 EB 17 41 4F EA 0C 44 4F EA ... -- CPU_WriteMem(1024 bytes @ 0x200001A0)  returns 0x400 (0013ms, 0753ms total)
T68B0 001:635 JLINK_WriteReg(R0, 0x00001000)  returns 0x00 (0000ms, 0753ms total)
T68B0 001:635 JLINK_WriteReg(R1, 0x00000400)  returns 0x00 (0000ms, 0753ms total)
T68B0 001:635 JLINK_WriteReg(R2, 0x200001A0)  returns 0x00 (0001ms, 0754ms total)
T68B0 001:636 JLINK_WriteReg(R3, 0x00000000)  returns 0x00 (0000ms, 0754ms total)
T68B0 001:636 JLINK_WriteReg(R4, 0x00000000)  returns 0x00 (0000ms, 0754ms total)
T68B0 001:636 JLINK_WriteReg(R5, 0x00000000)  returns 0x00 (0000ms, 0754ms total)
T68B0 001:636 JLINK_WriteReg(R6, 0x00000000)  returns 0x00 (0000ms, 0754ms total)
T68B0 001:636 JLINK_WriteReg(R7, 0x00000000)  returns 0x00 (0000ms, 0754ms total)
T68B0 001:636 JLINK_WriteReg(R8, 0x00000000)  returns 0x00 (0000ms, 0754ms total)
T68B0 001:636 JLINK_WriteReg(R9, 0x20000170)  returns 0x00 (0000ms, 0754ms total)
T68B0 001:636 JLINK_WriteReg(R10, 0x00000000)  returns 0x00 (0000ms, 0754ms total)
T68B0 001:636 JLINK_WriteReg(R11, 0x00000000)  returns 0x00 (0001ms, 0755ms total)
T68B0 001:637 JLINK_WriteReg(R12, 0x00000000)  returns 0x00 (0000ms, 0755ms total)
T68B0 001:637 JLINK_WriteReg(R13 (SP), 0x20001000)  returns 0x00 (0000ms, 0755ms total)
T68B0 001:637 JLINK_WriteReg(R14, 0x20000001)  returns 0x00 (0000ms, 0755ms total)
T68B0 001:637 JLINK_WriteReg(R15 (PC), 0x200000E8)  returns 0x00 (0000ms, 0755ms total)
T68B0 001:637 JLINK_WriteReg(XPSR, 0x01000000)  returns 0x00 (0000ms, 0755ms total)
T68B0 001:637 JLINK_WriteReg(MSP, 0x20001000)  returns 0x00 (0000ms, 0755ms total)
T68B0 001:637 JLINK_WriteReg(PSP, 0x20001000)  returns 0x00 (0000ms, 0755ms total)
T68B0 001:637 JLINK_WriteReg(CFBP, 0x00000000)  returns 0x00 (0000ms, 0755ms total)
T68B0 001:637 JLINK_SetBPEx(Addr = 0x20000000, Type = 0xFFFFFFF2)  returns 0x0000000C (0001ms, 0756ms total)
T68B0 001:638 JLINK_Go() (0002ms, 0758ms total)
T68B0 001:640 JLINK_IsHalted()  returns FALSE (0001ms, 0759ms total)
T68B0 001:649 JLINK_IsHalted() -- CPU_ReadMem(2 bytes @ 0x20000000)  returns TRUE (0004ms, 0762ms total)
T68B0 001:653 JLINK_ReadReg(R15 (PC))  returns 0x20000000 (0000ms, 0758ms total)
T68B0 001:653 JLINK_ClrBPEx(BPHandle = 0x0000000C)  returns 0x00 (0001ms, 0759ms total)
T68B0 001:654 JLINK_ReadReg(R0)  returns 0x00000000 (0000ms, 0759ms total)
T68B0 001:656 JLINK_WriteMem(0x200001A0, 0x0400 Bytes, ...) - Data: 15 46 4C EB 17 40 22 EA 0B 4E 0B FB 06 FC 25 EA ... -- CPU_WriteMem(1024 bytes @ 0x200001A0)  returns 0x400 (0013ms, 0772ms total)
T68B0 001:669 JLINK_WriteReg(R0, 0x00001400)  returns 0x00 (0000ms, 0772ms total)
T68B0 001:669 JLINK_WriteReg(R1, 0x00000400)  returns 0x00 (0000ms, 0772ms total)
T68B0 001:669 JLINK_WriteReg(R2, 0x200001A0)  returns 0x00 (0000ms, 0772ms total)
T68B0 001:669 JLINK_WriteReg(R3, 0x00000000)  returns 0x00 (0000ms, 0772ms total)
T68B0 001:669 JLINK_WriteReg(R4, 0x00000000)  returns 0x00 (0000ms, 0772ms total)
T68B0 001:670 JLINK_WriteReg(R5, 0x00000000)  returns 0x00 (0000ms, 0772ms total)
T68B0 001:670 JLINK_WriteReg(R6, 0x00000000)  returns 0x00 (0000ms, 0772ms total)
T68B0 001:670 JLINK_WriteReg(R7, 0x00000000)  returns 0x00 (0000ms, 0772ms total)
T68B0 001:670 JLINK_WriteReg(R8, 0x00000000)  returns 0x00 (0000ms, 0772ms total)
T68B0 001:670 JLINK_WriteReg(R9, 0x20000170)  returns 0x00 (0000ms, 0772ms total)
T68B0 001:670 JLINK_WriteReg(R10, 0x00000000)  returns 0x00 (0000ms, 0772ms total)
T68B0 001:670 JLINK_WriteReg(R11, 0x00000000)  returns 0x00 (0000ms, 0772ms total)
T68B0 001:670 JLINK_WriteReg(R12, 0x00000000)  returns 0x00 (0000ms, 0772ms total)
T68B0 001:670 JLINK_WriteReg(R13 (SP), 0x20001000)  returns 0x00 (0001ms, 0773ms total)
T68B0 001:671 JLINK_WriteReg(R14, 0x20000001)  returns 0x00 (0000ms, 0773ms total)
T68B0 001:671 JLINK_WriteReg(R15 (PC), 0x200000E8)  returns 0x00 (0000ms, 0773ms total)
T68B0 001:671 JLINK_WriteReg(XPSR, 0x01000000)  returns 0x00 (0000ms, 0773ms total)
T68B0 001:671 JLINK_WriteReg(MSP, 0x20001000)  returns 0x00 (0000ms, 0773ms total)
T68B0 001:671 JLINK_WriteReg(PSP, 0x20001000)  returns 0x00 (0000ms, 0773ms total)
T68B0 001:671 JLINK_WriteReg(CFBP, 0x00000000)  returns 0x00 (0000ms, 0773ms total)
T68B0 001:671 JLINK_SetBPEx(Addr = 0x20000000, Type = 0xFFFFFFF2)  returns 0x0000000D (0000ms, 0773ms total)
T68B0 001:671 JLINK_Go() (0003ms, 0776ms total)
T68B0 001:674 JLINK_IsHalted()  returns FALSE (0001ms, 0777ms total)
T68B0 001:680 JLINK_IsHalted() -- CPU_ReadMem(2 bytes @ 0x20000000)  returns TRUE (0004ms, 0780ms total)
T68B0 001:685 JLINK_ReadReg(R15 (PC))  returns 0x20000000 (0000ms, 0776ms total)
T68B0 001:685 JLINK_ClrBPEx(BPHandle = 0x0000000D)  returns 0x00 (0000ms, 0776ms total)
T68B0 001:685 JLINK_ReadReg(R0)  returns 0x00000000 (0000ms, 0776ms total)
T68B0 001:687 JLINK_WriteMem(0x200001A0, 0x0400 Bytes, ...) - Data: 36 20 04 F0 9F F9 20 23 01 22 11 46 2A 20 04 F0 ... -- CPU_WriteMem(1024 bytes @ 0x200001A0)  returns 0x400 (0012ms, 0788ms total)
T68B0 001:699 JLINK_WriteReg(R0, 0x00001800)  returns 0x00 (0000ms, 0788ms total)
T68B0 001:700 JLINK_WriteReg(R1, 0x00000400)  returns 0x00 (0000ms, 0789ms total)
T68B0 001:700 JLINK_WriteReg(R2, 0x200001A0)  returns 0x00 (0000ms, 0789ms total)
T68B0 001:700 JLINK_WriteReg(R3, 0x00000000)  returns 0x00 (0000ms, 0789ms total)
T68B0 001:700 JLINK_WriteReg(R4, 0x00000000)  returns 0x00 (0000ms, 0789ms total)
T68B0 001:700 JLINK_WriteReg(R5, 0x00000000)  returns 0x00 (0000ms, 0789ms total)
T68B0 001:700 JLINK_WriteReg(R6, 0x00000000)  returns 0x00 (0000ms, 0789ms total)
T68B0 001:700 JLINK_WriteReg(R7, 0x00000000)  returns 0x00 (0000ms, 0789ms total)
T68B0 001:700 JLINK_WriteReg(R8, 0x00000000)  returns 0x00 (0000ms, 0789ms total)
T68B0 001:700 JLINK_WriteReg(R9, 0x20000170)  returns 0x00 (0000ms, 0789ms total)
T68B0 001:700 JLINK_WriteReg(R10, 0x00000000)  returns 0x00 (0001ms, 0790ms total)
T68B0 001:701 JLINK_WriteReg(R11, 0x00000000)  returns 0x00 (0000ms, 0790ms total)
T68B0 001:701 JLINK_WriteReg(R12, 0x00000000)  returns 0x00 (0000ms, 0790ms total)
T68B0 001:701 JLINK_WriteReg(R13 (SP), 0x20001000)  returns 0x00 (0000ms, 0790ms total)
T68B0 001:701 JLINK_WriteReg(R14, 0x20000001)  returns 0x00 (0000ms, 0790ms total)
T68B0 001:701 JLINK_WriteReg(R15 (PC), 0x200000E8)  returns 0x00 (0000ms, 0790ms total)
T68B0 001:701 JLINK_WriteReg(XPSR, 0x01000000)  returns 0x00 (0000ms, 0790ms total)
T68B0 001:701 JLINK_WriteReg(MSP, 0x20001000)  returns 0x00 (0000ms, 0790ms total)
T68B0 001:701 JLINK_WriteReg(PSP, 0x20001000)  returns 0x00 (0000ms, 0790ms total)
T68B0 001:701 JLINK_WriteReg(CFBP, 0x00000000)  returns 0x00 (0001ms, 0791ms total)
T68B0 001:702 JLINK_SetBPEx(Addr = 0x20000000, Type = 0xFFFFFFF2)  returns 0x0000000E (0000ms, 0791ms total)
T68B0 001:702 JLINK_Go() (0002ms, 0793ms total)
T68B0 001:704 JLINK_IsHalted()  returns FALSE (0001ms, 0794ms total)
T68B0 001:707 JLINK_IsHalted()  returns FALSE (0000ms, 0793ms total)
T68B0 001:710 JLINK_IsHalted() -- CPU_ReadMem(2 bytes @ 0x20000000)  returns TRUE (0004ms, 0797ms total)
T68B0 001:714 JLINK_ReadReg(R15 (PC))  returns 0x20000000 (0000ms, 0793ms total)
T68B0 001:714 JLINK_ClrBPEx(BPHandle = 0x0000000E)  returns 0x00 (0000ms, 0793ms total)
T68B0 001:714 JLINK_ReadReg(R0)  returns 0x00000000 (0000ms, 0793ms total)
T68B0 001:716 JLINK_WriteMem(0x200001A0, 0x0400 Bytes, ...) - Data: 04 EB 44 00 00 EB C4 00 13 49 51 F8 20 00 C8 B1 ... -- CPU_WriteMem(1024 bytes @ 0x200001A0)  returns 0x400 (0013ms, 0806ms total)
T68B0 001:729 JLINK_WriteReg(R0, 0x00001C00)  returns 0x00 (0000ms, 0806ms total)
T68B0 001:729 JLINK_WriteReg(R1, 0x00000400)  returns 0x00 (0000ms, 0806ms total)
T68B0 001:729 JLINK_WriteReg(R2, 0x200001A0)  returns 0x00 (0000ms, 0806ms total)
T68B0 001:729 JLINK_WriteReg(R3, 0x00000000)  returns 0x00 (0000ms, 0806ms total)
T68B0 001:729 JLINK_WriteReg(R4, 0x00000000)  returns 0x00 (0000ms, 0806ms total)
T68B0 001:730 JLINK_WriteReg(R5, 0x00000000)  returns 0x00 (0000ms, 0807ms total)
T68B0 001:730 JLINK_WriteReg(R6, 0x00000000)  returns 0x00 (0000ms, 0807ms total)
T68B0 001:730 JLINK_WriteReg(R7, 0x00000000)  returns 0x00 (0000ms, 0807ms total)
T68B0 001:730 JLINK_WriteReg(R8, 0x00000000)  returns 0x00 (0000ms, 0807ms total)
T68B0 001:730 JLINK_WriteReg(R9, 0x20000170)  returns 0x00 (0000ms, 0807ms total)
T68B0 001:730 JLINK_WriteReg(R10, 0x00000000)  returns 0x00 (0000ms, 0807ms total)
T68B0 001:730 JLINK_WriteReg(R11, 0x00000000)  returns 0x00 (0000ms, 0807ms total)
T68B0 001:730 JLINK_WriteReg(R12, 0x00000000)  returns 0x00 (0000ms, 0807ms total)
T68B0 001:730 JLINK_WriteReg(R13 (SP), 0x20001000)  returns 0x00 (0000ms, 0807ms total)
T68B0 001:730 JLINK_WriteReg(R14, 0x20000001)  returns 0x00 (0001ms, 0808ms total)
T68B0 001:731 JLINK_WriteReg(R15 (PC), 0x200000E8)  returns 0x00 (0000ms, 0808ms total)
T68B0 001:731 JLINK_WriteReg(XPSR, 0x01000000)  returns 0x00 (0000ms, 0808ms total)
T68B0 001:731 JLINK_WriteReg(MSP, 0x20001000)  returns 0x00 (0000ms, 0808ms total)
T68B0 001:731 JLINK_WriteReg(PSP, 0x20001000)  returns 0x00 (0000ms, 0808ms total)
T68B0 001:731 JLINK_WriteReg(CFBP, 0x00000000)  returns 0x00 (0000ms, 0808ms total)
T68B0 001:731 JLINK_SetBPEx(Addr = 0x20000000, Type = 0xFFFFFFF2)  returns 0x0000000F (0000ms, 0808ms total)
T68B0 001:731 JLINK_Go() (0004ms, 0812ms total)
T68B0 001:735 JLINK_IsHalted()  returns FALSE (0000ms, 0812ms total)
T68B0 001:738 JLINK_IsHalted()  returns FALSE (0000ms, 0812ms total)
T68B0 001:740 JLINK_IsHalted() -- CPU_ReadMem(2 bytes @ 0x20000000)  returns TRUE (0005ms, 0817ms total)
T68B0 001:745 JLINK_ReadReg(R15 (PC))  returns 0x20000000 (0000ms, 0812ms total)
T68B0 001:745 JLINK_ClrBPEx(BPHandle = 0x0000000F)  returns 0x00 (0000ms, 0812ms total)
T68B0 001:745 JLINK_ReadReg(R0)  returns 0x00000000 (0000ms, 0812ms total)
T68B0 001:747 JLINK_WriteMem(0x200001A0, 0x0400 Bytes, ...) - Data: 02 B2 60 1C C1 B2 6F F0 02 03 50 20 01 F0 64 F8 ... -- CPU_WriteMem(1024 bytes @ 0x200001A0)  returns 0x400 (0012ms, 0824ms total)
T68B0 001:759 JLINK_WriteReg(R0, 0x00002000)  returns 0x00 (0000ms, 0824ms total)
T68B0 001:760 JLINK_WriteReg(R1, 0x00000400)  returns 0x00 (0000ms, 0824ms total)
T68B0 001:760 JLINK_WriteReg(R2, 0x200001A0)  returns 0x00 (0000ms, 0824ms total)
T68B0 001:760 JLINK_WriteReg(R3, 0x00000000)  returns 0x00 (0000ms, 0824ms total)
T68B0 001:760 JLINK_WriteReg(R4, 0x00000000)  returns 0x00 (0000ms, 0824ms total)
T68B0 001:760 JLINK_WriteReg(R5, 0x00000000)  returns 0x00 (0000ms, 0824ms total)
T68B0 001:760 JLINK_WriteReg(R6, 0x00000000)  returns 0x00 (0000ms, 0824ms total)
T68B0 001:760 JLINK_WriteReg(R7, 0x00000000)  returns 0x00 (0000ms, 0824ms total)
T68B0 001:760 JLINK_WriteReg(R8, 0x00000000)  returns 0x00 (0000ms, 0824ms total)
T68B0 001:760 JLINK_WriteReg(R9, 0x20000170)  returns 0x00 (0000ms, 0824ms total)
T68B0 001:760 JLINK_WriteReg(R10, 0x00000000)  returns 0x00 (0001ms, 0825ms total)
T68B0 001:761 JLINK_WriteReg(R11, 0x00000000)  returns 0x00 (0000ms, 0825ms total)
T68B0 001:761 JLINK_WriteReg(R12, 0x00000000)  returns 0x00 (0000ms, 0825ms total)
T68B0 001:761 JLINK_WriteReg(R13 (SP), 0x20001000)  returns 0x00 (0000ms, 0825ms total)
T68B0 001:761 JLINK_WriteReg(R14, 0x20000001)  returns 0x00 (0000ms, 0825ms total)
T68B0 001:761 JLINK_WriteReg(R15 (PC), 0x200000E8)  returns 0x00 (0000ms, 0825ms total)
T68B0 001:761 JLINK_WriteReg(XPSR, 0x01000000)  returns 0x00 (0000ms, 0825ms total)
T68B0 001:761 JLINK_WriteReg(MSP, 0x20001000)  returns 0x00 (0000ms, 0825ms total)
T68B0 001:761 JLINK_WriteReg(PSP, 0x20001000)  returns 0x00 (0000ms, 0825ms total)
T68B0 001:761 JLINK_WriteReg(CFBP, 0x00000000)  returns 0x00 (0000ms, 0825ms total)
T68B0 001:761 JLINK_SetBPEx(Addr = 0x20000000, Type = 0xFFFFFFF2)  returns 0x00000010 (0001ms, 0826ms total)
T68B0 001:762 JLINK_Go() (0002ms, 0828ms total)
T68B0 001:764 JLINK_IsHalted()  returns FALSE (0001ms, 0829ms total)
T68B0 001:767 JLINK_IsHalted()  returns FALSE (0001ms, 0829ms total)
T68B0 001:770 JLINK_IsHalted() -- CPU_ReadMem(2 bytes @ 0x20000000)  returns TRUE (0004ms, 0832ms total)
T68B0 001:774 JLINK_ReadReg(R15 (PC))  returns 0x20000000 (0001ms, 0829ms total)
T68B0 001:775 JLINK_ClrBPEx(BPHandle = 0x00000010)  returns 0x00 (0000ms, 0829ms total)
T68B0 001:775 JLINK_ReadReg(R0)  returns 0x00000000 (0000ms, 0829ms total)
T68B0 001:778 JLINK_WriteMem(0x200001A0, 0x0400 Bytes, ...) - Data: 14 30 38 49 91 F9 00 10 40 56 00 1D 00 28 64 D1 ... -- CPU_WriteMem(1024 bytes @ 0x200001A0)  returns 0x400 (0013ms, 0842ms total)
T68B0 001:791 JLINK_WriteReg(R0, 0x00002400)  returns 0x00 (0000ms, 0842ms total)
T68B0 001:791 JLINK_WriteReg(R1, 0x00000400)  returns 0x00 (0000ms, 0842ms total)
T68B0 001:791 JLINK_WriteReg(R2, 0x200001A0)  returns 0x00 (0000ms, 0842ms total)
T68B0 001:791 JLINK_WriteReg(R3, 0x00000000)  returns 0x00 (0000ms, 0842ms total)
T68B0 001:791 JLINK_WriteReg(R4, 0x00000000)  returns 0x00 (0000ms, 0842ms total)
T68B0 001:791 JLINK_WriteReg(R5, 0x00000000)  returns 0x00 (0000ms, 0842ms total)
T68B0 001:791 JLINK_WriteReg(R6, 0x00000000)  returns 0x00 (0001ms, 0843ms total)
T68B0 001:792 JLINK_WriteReg(R7, 0x00000000)  returns 0x00 (0000ms, 0843ms total)
T68B0 001:792 JLINK_WriteReg(R8, 0x00000000)  returns 0x00 (0000ms, 0843ms total)
T68B0 001:792 JLINK_WriteReg(R9, 0x20000170)  returns 0x00 (0000ms, 0843ms total)
T68B0 001:792 JLINK_WriteReg(R10, 0x00000000)  returns 0x00 (0000ms, 0843ms total)
T68B0 001:792 JLINK_WriteReg(R11, 0x00000000)  returns 0x00 (0000ms, 0843ms total)
T68B0 001:792 JLINK_WriteReg(R12, 0x00000000)  returns 0x00 (0000ms, 0843ms total)
T68B0 001:792 JLINK_WriteReg(R13 (SP), 0x20001000)  returns 0x00 (0000ms, 0843ms total)
T68B0 001:792 JLINK_WriteReg(R14, 0x20000001)  returns 0x00 (0000ms, 0843ms total)
T68B0 001:792 JLINK_WriteReg(R15 (PC), 0x200000E8)  returns 0x00 (0000ms, 0843ms total)
T68B0 001:792 JLINK_WriteReg(XPSR, 0x01000000)  returns 0x00 (0001ms, 0844ms total)
